
T3564 000:440 SEGGER J-Link V5.12f Log File (0001ms, 0328ms total)
T3564 000:440 DLL Compiled: May 17 2016 16:03:35 (0001ms, 0328ms total)
T3564 000:440 Logging started @ 2019-01-04 15:00 (0001ms, 0328ms total)
T3564 000:441 JLINK_SetWarnOutHandler(...) (0000ms, 0328ms total)
T3564 000:441 JLINK_OpenEx(...)
Firmware: J-Link ARM-OB STM32 compiled Aug 22 2012 19:52:04
Hardware: V7.00
S/N: 20090928
Feature(s): RDI,FlashDL,FlashBP,JFlash,GDBFull  returns O.K. (0316ms, 0644ms total)
T3564 000:757 JLINK_SetErrorOutHandler(...) (0000ms, 0644ms total)
T3564 000:757 JLINK_ExecCommand("ProjectFile = "F:\Graduation Project\codeexample\stm32f405\luo_ji_temp\datatrans\MDK-ARM\JLinkSettings.ini"", ...)Device "CORTEX-M4" selected.  returns 0x00 (0030ms, 0674ms total)
T3564 000:803 JLINK_ExecCommand("Device = STM32F405RGTx", ...)Device "CORTEX-M4" selected.  returns 0x00 (0017ms, 0691ms total)
T3564 000:820 JLINK_ExecCommand("DisableConnectionTimeout", ...)  returns 0x01 (0000ms, 0691ms total)
T3564 000:820 JLINK_GetHardwareVersion()  returns 0x11170 (0000ms, 0691ms total)
T3564 000:820 JLINK_GetDLLVersion()  returns 51206 (0000ms, 0691ms total)
T3564 000:820 JLINK_GetFirmwareString(...) (0000ms, 0691ms total)
T3564 000:861 JLINK_GetDLLVersion()  returns 51206 (0000ms, 0691ms total)
T3564 000:861 JLINK_GetCompileDateTime() (0000ms, 0691ms total)
T3564 000:894 JLINK_GetFirmwareString(...) (0000ms, 0691ms total)
T3564 000:937 JLINK_GetHardwareVersion()  returns 0x11170 (0000ms, 0691ms total)
T3564 001:038 JLINK_TIF_Select(JLINKARM_TIF_SWD)  returns 0x00 (0006ms, 0697ms total)
T3564 001:044 JLINK_SetSpeed(5000) (0002ms, 0699ms total)
T3564 001:046 JLINK_GetId() >0x108 TIF>Found SWD-DP with ID 0x2BA01477 >0x0D TIF> >0x28 TIF> >0x0D TIF> >0x28 TIF> >0x0D TIF> >0x28 TIF> >0x0D TIF> >0x28 TIF> >0x0D TIF> >0x21 TIF> >0x0D TIF> >0x28 TIF> >0x0D TIF> >0x28 TIF> >0x0D TIF> >0x21 TIF> >0x0D TIF> >0x21 TIF> >0x0D TIF> >0x21 TIF> >0x0D TIF> >0x28 TIF> >0x0D TIF> >0x28 TIF> >0x0D TIF> >0x28 TIF> >0x0D TIF> >0x21 TIF> >0x0D TIF> >0x21 TIF> >0x0D TIF> >0x28 TIF> >0x0D TIF> >0x21 TIF> >0x0D TIF> >0x21 TIF>Found Cortex-M4 r0p1, Little endian.
 -- CPU_ReadMem(4 bytes @ 0xE000EDF0) -- CPU_ReadMem(4 bytes @ 0xE0002000)FPUnit: 6 code (BP) slots and 2 literal slots -- CPU_ReadMem(4 bytes @ 0xE000EDFC) -- CPU_ReadMem(4 bytes @ 0xE0001000) -- CPU_WriteMem(4 bytes @ 0xE0001000) -- CPU_ReadMem(4 bytes @ 0xE000ED88) -- CPU_WriteMem(4 bytes @ 0xE000ED88) -- CPU_ReadMem(4 bytes @ 0xE000ED88) -- CPU_WriteMem(4 bytes @ 0xE000ED88)CoreSight components:ROMTbl 0 @ E00FF000 -- CPU_ReadMem(16 bytes @ 0xE00FF000) -- CPU_ReadMem(16 bytes @ 0xE000EFF0)
 -- CPU_ReadMem(16 bytes @ 0xE000EFE0)ROMTbl 0 [0]: FFF0F000, CID: B105E00D, PID: 000BB00C SCS -- CPU_ReadMem(16 bytes @ 0xE0001FF0) -- CPU_ReadMem(16 bytes @ 0xE0001FE0)ROMTbl 0 [1]: FFF02000, CID: B105E00D, PID: 003BB002 DWT -- CPU_ReadMem(16 bytes @ 0xE0002FF0) -- CPU_ReadMem(16 bytes @ 0xE0002FE0)ROMTbl 0 [2]: FFF03000, CID: B105E00D, PID: 002BB003 FPB -- CPU_ReadMem(16 bytes @ 0xE0000FF0) -- CPU_ReadMem(16 bytes @ 0xE0000FE0)ROMTbl 0 [3]: FFF01000, CID: B105E00D, PID: 003BB001 ITM
 -- CPU_ReadMem(16 bytes @ 0xE00FF010) -- CPU_ReadMem(16 bytes @ 0xE0040FF0) -- CPU_ReadMem(16 bytes @ 0xE0040FE0)ROMTbl 0 [4]: FFF41000, CID: B105900D, PID: 000BB9A1 TPIU -- CPU_ReadMem(16 bytes @ 0xE0041FF0) -- CPU_ReadMem(16 bytes @ 0xE0041FE0)ROMTbl 0 [5]: FFF42000, CID: B105900D, PID: 000BB925 ETM >0x0D TIF> >0x21 TIF>  returns 0x2BA01477 (0447ms, 1146ms total)
T3564 001:493 JLINK_GetDLLVersion()  returns 51206 (0000ms, 1146ms total)
T3564 001:493 JLINK_CORE_GetFound()  returns 0xE0000FF (0000ms, 1146ms total)
T3564 001:493 JLINK_GetDebugInfo(0x100) -- Value=0xE00FF000  returns 0x00 (0000ms, 1146ms total)
T3564 001:512 JLINK_ReadMem (0xE00FF000, 0x0020 Bytes, ...) -- CPU is running -- CPU_ReadMem(32 bytes @ 0xE00FF000) - Data: 03 F0 F0 FF 03 20 F0 FF 03 30 F0 FF 03 10 F0 FF ...  returns 0x00 (0002ms, 1148ms total)
T3564 001:514 JLINK_ReadMem (0xE000EFF0, 0x0010 Bytes, ...) -- CPU is running -- CPU_ReadMem(16 bytes @ 0xE000EFF0) - Data: 0D 00 00 00 E0 00 00 00 05 00 00 00 B1 00 00 00  returns 0x00 (0003ms, 1151ms total)
T3564 001:517 JLINK_ReadMem (0xE000EFD0, 0x0020 Bytes, ...) -- CPU is running -- CPU_ReadMem(32 bytes @ 0xE000EFD0) - Data: 04 00 00 00 00 00 00 00 00 00 00 00 00 00 00 00 ...  returns 0x00 (0003ms, 1154ms total)
T3564 001:520 JLINK_ReadMem (0xE0001FF0, 0x0010 Bytes, ...) -- CPU is running -- CPU_ReadMem(16 bytes @ 0xE0001FF0) - Data: 0D 00 00 00 E0 00 00 00 05 00 00 00 B1 00 00 00  returns 0x00 (0003ms, 1157ms total)
T3564 001:523 JLINK_ReadMem (0xE0001FD0, 0x0020 Bytes, ...) -- CPU is running -- CPU_ReadMem(32 bytes @ 0xE0001FD0) - Data: 04 00 00 00 00 00 00 00 00 00 00 00 00 00 00 00 ...  returns 0x00 (0002ms, 1159ms total)
T3564 001:525 JLINK_ReadMem (0xE0002FF0, 0x0010 Bytes, ...) -- CPU is running -- CPU_ReadMem(16 bytes @ 0xE0002FF0) - Data: 0D 00 00 00 E0 00 00 00 05 00 00 00 B1 00 00 00  returns 0x00 (0002ms, 1161ms total)
T3564 001:527 JLINK_ReadMem (0xE0002FD0, 0x0020 Bytes, ...) -- CPU is running -- CPU_ReadMem(32 bytes @ 0xE0002FD0) - Data: 04 00 00 00 00 00 00 00 00 00 00 00 00 00 00 00 ...  returns 0x00 (0003ms, 1164ms total)
T3564 001:530 JLINK_ReadMem (0xE0000FF0, 0x0010 Bytes, ...) -- CPU is running -- CPU_ReadMem(16 bytes @ 0xE0000FF0) - Data: 0D 00 00 00 E0 00 00 00 05 00 00 00 B1 00 00 00  returns 0x00 (0002ms, 1166ms total)
T3564 001:532 JLINK_ReadMem (0xE0000FD0, 0x0020 Bytes, ...) -- CPU is running -- CPU_ReadMem(32 bytes @ 0xE0000FD0) - Data: 04 00 00 00 00 00 00 00 00 00 00 00 00 00 00 00 ...  returns 0x00 (0003ms, 1169ms total)
T3564 001:535 JLINK_ReadMem (0xE0040FF0, 0x0010 Bytes, ...) -- CPU is running -- CPU_ReadMem(16 bytes @ 0xE0040FF0) - Data: 0D 00 00 00 90 00 00 00 05 00 00 00 B1 00 00 00  returns 0x00 (0002ms, 1171ms total)
T3564 001:537 JLINK_ReadMem (0xE0040FD0, 0x0020 Bytes, ...) -- CPU is running -- CPU_ReadMem(32 bytes @ 0xE0040FD0) - Data: 04 00 00 00 00 00 00 00 00 00 00 00 00 00 00 00 ...  returns 0x00 (0003ms, 1174ms total)
T3564 001:540 JLINK_ReadMem (0xE0041FF0, 0x0010 Bytes, ...) -- CPU is running -- CPU_ReadMem(16 bytes @ 0xE0041FF0) - Data: 0D 00 00 00 90 00 00 00 05 00 00 00 B1 00 00 00  returns 0x00 (0002ms, 1176ms total)
T3564 001:542 JLINK_ReadMem (0xE0041FD0, 0x0020 Bytes, ...) -- CPU is running -- CPU_ReadMem(32 bytes @ 0xE0041FD0) - Data: 04 00 00 00 00 00 00 00 00 00 00 00 00 00 00 00 ...  returns 0x00 (0003ms, 1179ms total)
T3564 001:545 JLINK_ReadMemU32(0xE000EF40, 0x0001 Items, ...) -- CPU is running -- CPU_ReadMem(4 bytes @ 0xE000EF40) - Data: 21 00 11 10  returns 0x01 (0002ms, 1181ms total)
T3564 001:547 JLINK_ReadMemU32(0xE000EF44, 0x0001 Items, ...) -- CPU is running -- CPU_ReadMem(4 bytes @ 0xE000EF44) - Data: 11 00 00 11  returns 0x01 (0002ms, 1183ms total)
T3564 001:549 JLINK_ReadMemU32(0xE000ED00, 0x0001 Items, ...) -- CPU is running -- CPU_ReadMem(4 bytes @ 0xE000ED00) - Data: 41 C2 0F 41  returns 0x01 (0002ms, 1185ms total)
T3564 001:551 JLINK_SetResetType(JLINKARM_RESET_TYPE_NORMAL)  returns JLINKARM_RESET_TYPE_NORMAL (0000ms, 1185ms total)
T3564 001:551 JLINK_Reset() -- CPU is running -- CPU_WriteMem(4 bytes @ 0xE000EDF0) -- CPU is running -- CPU_WriteMem(4 bytes @ 0xE000EDFC) >0x35 TIF> -- CPU is running -- CPU_WriteMem(4 bytes @ 0xE000ED0C) -- CPU is running -- CPU_ReadMem(4 bytes @ 0xE000EDF0) -- CPU is running -- CPU_ReadMem(4 bytes @ 0xE000EDF0) -- CPU is running -- CPU_WriteMem(4 bytes @ 0xE000EDF0) -- CPU is running -- CPU_WriteMem(4 bytes @ 0xE000EDFC) -- CPU is running -- CPU_ReadMem(4 bytes @ 0xE000EDF0)
 -- CPU_WriteMem(4 bytes @ 0xE0002000) -- CPU_ReadMem(4 bytes @ 0xE000EDFC) -- CPU_ReadMem(4 bytes @ 0xE0001000) (0044ms, 1229ms total)
T3564 001:595 JLINK_Halt()  returns 0x00 (0000ms, 1229ms total)
T3564 001:595 JLINK_IsHalted()  returns TRUE (0000ms, 1229ms total)
T3564 001:595 JLINK_ReadMemU32(0xE000EDF0, 0x0001 Items, ...) -- CPU_ReadMem(4 bytes @ 0xE000EDF0) - Data: 03 00 03 00  returns 0x01 (0003ms, 1232ms total)
T3564 001:598 JLINK_WriteU32(0xE000EDF0, 0xA05F0003) -- CPU_WriteMem(4 bytes @ 0xE000EDF0)  returns 0x00 (0003ms, 1235ms total)
T3564 001:601 JLINK_WriteU32(0xE000EDFC, 0x01000000) -- CPU_WriteMem(4 bytes @ 0xE000EDFC)  returns 0x00 (0003ms, 1238ms total)
T3564 001:672 JLINK_GetHWStatus(...)  returns 0x00 (0003ms, 1241ms total)
T3564 001:703 JLINK_GetNumBPUnits(Type = 0xFFFFFF00)  returns 0x06 (0000ms, 1241ms total)
T3564 001:703 JLINK_GetNumBPUnits(Type = 0xF0)  returns 0x2000 (0000ms, 1241ms total)
T3564 001:703 JLINK_GetNumWPUnits()  returns 0x04 (0001ms, 1242ms total)
T3564 001:733 JLINK_GetSpeed()  returns 0xFA0 (0000ms, 1242ms total)
T3564 001:752 JLINK_ReadMemU32(0xE000E004, 0x0001 Items, ...) -- CPU_ReadMem(4 bytes @ 0xE000E004) - Data: 02 00 00 00  returns 0x01 (0003ms, 1245ms total)
T3564 001:755 JLINK_ReadMemU32(0xE000E004, 0x0001 Items, ...) -- CPU_ReadMem(4 bytes @ 0xE000E004) - Data: 02 00 00 00  returns 0x01 (0003ms, 1248ms total)
T3564 001:758 JLINK_WriteMem(0xE0001000, 0x001C Bytes, ...) - Data: 01 00 00 00 00 00 00 00 00 00 00 00 00 00 00 00 ... -- CPU_WriteMem(28 bytes @ 0xE0001000)  returns 0x1C (0003ms, 1251ms total)
T3564 001:761 JLINK_ReadMem (0xE0001000, 0x001C Bytes, ...) -- CPU_ReadMem(28 bytes @ 0xE0001000) - Data: 01 00 00 40 00 00 00 00 00 00 00 00 00 00 00 00 ...  returns 0x00 (0002ms, 1253ms total)
T3564 001:763 JLINK_Halt()  returns 0x00 (0000ms, 1253ms total)
T3564 001:763 JLINK_IsHalted()  returns TRUE (0000ms, 1253ms total)
T3564 001:775 JLINK_WriteMem(0x20000000, 0x0180 Bytes, ...) - Data: 00 BE 0A E0 0D 78 2D 06 68 40 08 24 40 00 00 D3 ... -- CPU_WriteMem(384 bytes @ 0x20000000)  returns 0x180 (0008ms, 1261ms total)
T3564 001:783 JLINK_WriteReg(R0, 0x08000000)  returns 0x00 (0000ms, 1261ms total)
T3564 001:783 JLINK_WriteReg(R1, 0x0A037A00)  returns 0x00 (0000ms, 1261ms total)
T3564 001:783 JLINK_WriteReg(R2, 0x00000001)  returns 0x00 (0000ms, 1261ms total)
T3564 001:783 JLINK_WriteReg(R3, 0x00000000)  returns 0x00 (0000ms, 1261ms total)
T3564 001:783 JLINK_WriteReg(R4, 0x00000000)  returns 0x00 (0000ms, 1261ms total)
T3564 001:783 JLINK_WriteReg(R5, 0x00000000)  returns 0x00 (0000ms, 1261ms total)
T3564 001:783 JLINK_WriteReg(R6, 0x00000000)  returns 0x00 (0000ms, 1261ms total)
T3564 001:783 JLINK_WriteReg(R7, 0x00000000)  returns 0x00 (0000ms, 1261ms total)
T3564 001:783 JLINK_WriteReg(R8, 0x00000000)  returns 0x00 (0000ms, 1261ms total)
T3564 001:783 JLINK_WriteReg(R9, 0x2000017C)  returns 0x00 (0000ms, 1261ms total)
T3564 001:783 JLINK_WriteReg(R10, 0x00000000)  returns 0x00 (0000ms, 1261ms total)
T3564 001:783 JLINK_WriteReg(R11, 0x00000000)  returns 0x00 (0000ms, 1261ms total)
T3564 001:783 JLINK_WriteReg(R12, 0x00000000)  returns 0x00 (0000ms, 1261ms total)
T3564 001:783 JLINK_WriteReg(R13 (SP), 0x20001000)  returns 0x00 (0000ms, 1261ms total)
T3564 001:783 JLINK_WriteReg(R14, 0x20000001)  returns 0x00 (0000ms, 1261ms total)
T3564 001:783 JLINK_WriteReg(R15 (PC), 0x20000054)  returns 0x00 (0000ms, 1261ms total)
T3564 001:783 JLINK_WriteReg(XPSR, 0x01000000)  returns 0x00 (0000ms, 1261ms total)
T3564 001:783 JLINK_WriteReg(MSP, 0x20001000)  returns 0x00 (0000ms, 1261ms total)
T3564 001:783 JLINK_WriteReg(PSP, 0x20001000)  returns 0x00 (0000ms, 1261ms total)
T3564 001:783 JLINK_WriteReg(CFBP, 0x00000000)  returns 0x00 (0000ms, 1261ms total)
T3564 001:783 JLINK_SetBPEx(Addr = 0x20000000, Type = 0xFFFFFFF2) -- CPU_ReadMem(4 bytes @ 0x20000000) -- CPU_WriteMem(4 bytes @ 0x20000000) -- CPU_ReadMem(4 bytes @ 0x20000000) -- CPU_WriteMem(4 bytes @ 0x20000000) -- CPU_ReadMem(2 bytes @ 0x20000000)  returns 0x00000001 (0012ms, 1273ms total)
T3564 001:795 JLINK_Go() -- CPU_WriteMem(2 bytes @ 0x20000000) -- CPU_ReadMem(4 bytes @ 0xE0001000) -- CPU_WriteMem(4 bytes @ 0xE0002008) -- CPU_WriteMem(4 bytes @ 0xE000200C) -- CPU_WriteMem(4 bytes @ 0xE0002010) -- CPU_WriteMem(4 bytes @ 0xE0002014) -- CPU_WriteMem(4 bytes @ 0xE0002018) -- CPU_WriteMem(4 bytes @ 0xE000201C) -- CPU_WriteMem(4 bytes @ 0xE0001004) (0021ms, 1294ms total)
T3564 001:816 JLINK_IsHalted() -- CPU_ReadMem(2 bytes @ 0x20000000)  returns TRUE (0010ms, 1304ms total)
T3564 001:826 JLINK_ReadReg(R15 (PC))  returns 0x20000000 (0000ms, 1294ms total)
T3564 001:826 JLINK_ClrBPEx(BPHandle = 0x00000001)  returns 0x00 (0000ms, 1294ms total)
T3564 001:826 JLINK_ReadReg(R0)  returns 0x00000000 (0000ms, 1294ms total)
T3564 001:827 JLINK_WriteReg(R0, 0x08000000)  returns 0x00 (0000ms, 1294ms total)
T3564 001:827 JLINK_WriteReg(R1, 0x00004000)  returns 0x00 (0000ms, 1294ms total)
T3564 001:827 JLINK_WriteReg(R2, 0x000000FF)  returns 0x00 (0000ms, 1294ms total)
T3564 001:827 JLINK_WriteReg(R3, 0x00000000)  returns 0x00 (0001ms, 1295ms total)
T3564 001:828 JLINK_WriteReg(R4, 0x00000000)  returns 0x00 (0000ms, 1295ms total)
T3564 001:828 JLINK_WriteReg(R5, 0x00000000)  returns 0x00 (0000ms, 1295ms total)
T3564 001:828 JLINK_WriteReg(R6, 0x00000000)  returns 0x00 (0000ms, 1295ms total)
T3564 001:828 JLINK_WriteReg(R7, 0x00000000)  returns 0x00 (0000ms, 1295ms total)
T3564 001:828 JLINK_WriteReg(R8, 0x00000000)  returns 0x00 (0000ms, 1295ms total)
T3564 001:828 JLINK_WriteReg(R9, 0x2000017C)  returns 0x00 (0000ms, 1295ms total)
T3564 001:828 JLINK_WriteReg(R10, 0x00000000)  returns 0x00 (0000ms, 1295ms total)
T3564 001:828 JLINK_WriteReg(R11, 0x00000000)  returns 0x00 (0000ms, 1295ms total)
T3564 001:828 JLINK_WriteReg(R12, 0x00000000)  returns 0x00 (0000ms, 1295ms total)
T3564 001:828 JLINK_WriteReg(R13 (SP), 0x20001000)  returns 0x00 (0000ms, 1295ms total)
T3564 001:828 JLINK_WriteReg(R14, 0x20000001)  returns 0x00 (0000ms, 1295ms total)
T3564 001:828 JLINK_WriteReg(R15 (PC), 0x20000020)  returns 0x00 (0000ms, 1295ms total)
T3564 001:828 JLINK_WriteReg(XPSR, 0x01000000)  returns 0x00 (0000ms, 1295ms total)
T3564 001:828 JLINK_WriteReg(MSP, 0x20001000)  returns 0x00 (0000ms, 1295ms total)
T3564 001:828 JLINK_WriteReg(PSP, 0x20001000)  returns 0x00 (0000ms, 1295ms total)
T3564 001:828 JLINK_WriteReg(CFBP, 0x00000000)  returns 0x00 (0000ms, 1295ms total)
T3564 001:828 JLINK_SetBPEx(Addr = 0x20000000, Type = 0xFFFFFFF2)  returns 0x00000002 (0000ms, 1295ms total)
T3564 001:828 JLINK_Go() -- CPU_ReadMem(4 bytes @ 0xE0001000) (0007ms, 1302ms total)
T3564 001:835 JLINK_IsHalted() -- CPU_ReadMem(2 bytes @ 0x20000000)  returns TRUE (0010ms, 1312ms total)
T3564 001:845 JLINK_ReadReg(R15 (PC))  returns 0x20000000 (0000ms, 1302ms total)
T3564 001:845 JLINK_ClrBPEx(BPHandle = 0x00000002)  returns 0x00 (0000ms, 1302ms total)
T3564 001:845 JLINK_ReadReg(R0)  returns 0x00000001 (0000ms, 1302ms total)
T3564 001:845 JLINK_WriteReg(R0, 0x08000000)  returns 0x00 (0000ms, 1302ms total)
T3564 001:845 JLINK_WriteReg(R1, 0x00004000)  returns 0x00 (0000ms, 1302ms total)
T3564 001:845 JLINK_WriteReg(R2, 0x000000FF)  returns 0x00 (0000ms, 1302ms total)
T3564 001:845 JLINK_WriteReg(R3, 0x00000000)  returns 0x00 (0000ms, 1302ms total)
T3564 001:845 JLINK_WriteReg(R4, 0x00000000)  returns 0x00 (0001ms, 1303ms total)
T3564 001:846 JLINK_WriteReg(R5, 0x00000000)  returns 0x00 (0000ms, 1303ms total)
T3564 001:846 JLINK_WriteReg(R6, 0x00000000)  returns 0x00 (0000ms, 1303ms total)
T3564 001:846 JLINK_WriteReg(R7, 0x00000000)  returns 0x00 (0000ms, 1303ms total)
T3564 001:846 JLINK_WriteReg(R8, 0x00000000)  returns 0x00 (0000ms, 1303ms total)
T3564 001:846 JLINK_WriteReg(R9, 0x2000017C)  returns 0x00 (0000ms, 1303ms total)
T3564 001:846 JLINK_WriteReg(R10, 0x00000000)  returns 0x00 (0000ms, 1303ms total)
T3564 001:846 JLINK_WriteReg(R11, 0x00000000)  returns 0x00 (0000ms, 1303ms total)
T3564 001:846 JLINK_WriteReg(R12, 0x00000000)  returns 0x00 (0000ms, 1303ms total)
T3564 001:846 JLINK_WriteReg(R13 (SP), 0x20001000)  returns 0x00 (0000ms, 1303ms total)
T3564 001:846 JLINK_WriteReg(R14, 0x20000001)  returns 0x00 (0000ms, 1303ms total)
T3564 001:846 JLINK_WriteReg(R15 (PC), 0x200000BC)  returns 0x00 (0000ms, 1303ms total)
T3564 001:846 JLINK_WriteReg(XPSR, 0x01000000)  returns 0x00 (0000ms, 1303ms total)
T3564 001:846 JLINK_WriteReg(MSP, 0x20001000)  returns 0x00 (0000ms, 1303ms total)
T3564 001:846 JLINK_WriteReg(PSP, 0x20001000)  returns 0x00 (0000ms, 1303ms total)
T3564 001:846 JLINK_WriteReg(CFBP, 0x00000000)  returns 0x00 (0000ms, 1303ms total)
T3564 001:846 JLINK_SetBPEx(Addr = 0x20000000, Type = 0xFFFFFFF2)  returns 0x00000003 (0000ms, 1303ms total)
T3564 001:846 JLINK_Go() -- CPU_ReadMem(4 bytes @ 0xE0001000) (0007ms, 1310ms total)
T3564 001:853 JLINK_IsHalted()  returns FALSE (0003ms, 1313ms total)
T3564 001:948 JLINK_IsHalted()  returns FALSE (0002ms, 1312ms total)
T3564 002:042 JLINK_IsHalted()  returns FALSE (0004ms, 1314ms total)
T3564 002:157 JLINK_IsHalted()  returns FALSE (0002ms, 1312ms total)
T3564 002:257 JLINK_IsHalted() -- CPU_ReadMem(2 bytes @ 0x20000000)  returns TRUE (0009ms, 1319ms total)
T3564 002:266 JLINK_ReadReg(R15 (PC))  returns 0x20000000 (0000ms, 1310ms total)
T3564 002:266 JLINK_ClrBPEx(BPHandle = 0x00000003)  returns 0x00 (0000ms, 1310ms total)
T3564 002:266 JLINK_ReadReg(R0)  returns 0x00000000 (0000ms, 1310ms total)
T3564 002:270 JLINK_WriteReg(R0, 0x08004000)  returns 0x00 (0000ms, 1310ms total)
T3564 002:270 JLINK_WriteReg(R1, 0x00004000)  returns 0x00 (0001ms, 1311ms total)
T3564 002:271 JLINK_WriteReg(R2, 0x000000FF)  returns 0x00 (0000ms, 1311ms total)
T3564 002:271 JLINK_WriteReg(R3, 0x00000000)  returns 0x00 (0000ms, 1311ms total)
T3564 002:271 JLINK_WriteReg(R4, 0x00000000)  returns 0x00 (0000ms, 1311ms total)
T3564 002:271 JLINK_WriteReg(R5, 0x00000000)  returns 0x00 (0000ms, 1311ms total)
T3564 002:271 JLINK_WriteReg(R6, 0x00000000)  returns 0x00 (0000ms, 1311ms total)
T3564 002:271 JLINK_WriteReg(R7, 0x00000000)  returns 0x00 (0000ms, 1311ms total)
T3564 002:271 JLINK_WriteReg(R8, 0x00000000)  returns 0x00 (0000ms, 1311ms total)
T3564 002:271 JLINK_WriteReg(R9, 0x2000017C)  returns 0x00 (0000ms, 1311ms total)
T3564 002:271 JLINK_WriteReg(R10, 0x00000000)  returns 0x00 (0000ms, 1311ms total)
T3564 002:271 JLINK_WriteReg(R11, 0x00000000)  returns 0x00 (0000ms, 1311ms total)
T3564 002:271 JLINK_WriteReg(R12, 0x00000000)  returns 0x00 (0000ms, 1311ms total)
T3564 002:271 JLINK_WriteReg(R13 (SP), 0x20001000)  returns 0x00 (0000ms, 1311ms total)
T3564 002:271 JLINK_WriteReg(R14, 0x20000001)  returns 0x00 (0000ms, 1311ms total)
T3564 002:271 JLINK_WriteReg(R15 (PC), 0x20000020)  returns 0x00 (0000ms, 1311ms total)
T3564 002:271 JLINK_WriteReg(XPSR, 0x01000000)  returns 0x00 (0000ms, 1311ms total)
T3564 002:271 JLINK_WriteReg(MSP, 0x20001000)  returns 0x00 (0000ms, 1311ms total)
T3564 002:271 JLINK_WriteReg(PSP, 0x20001000)  returns 0x00 (0000ms, 1311ms total)
T3564 002:271 JLINK_WriteReg(CFBP, 0x00000000)  returns 0x00 (0000ms, 1311ms total)
T3564 002:271 JLINK_SetBPEx(Addr = 0x20000000, Type = 0xFFFFFFF2)  returns 0x00000004 (0001ms, 1312ms total)
T3564 002:272 JLINK_Go() -- CPU_ReadMem(4 bytes @ 0xE0001000) (0007ms, 1319ms total)
T3564 002:279 JLINK_IsHalted() -- CPU_ReadMem(2 bytes @ 0x20000000)  returns TRUE (0008ms, 1327ms total)
T3564 002:288 JLINK_ReadReg(R15 (PC))  returns 0x20000000 (0000ms, 1319ms total)
T3564 002:288 JLINK_ClrBPEx(BPHandle = 0x00000004)  returns 0x00 (0000ms, 1319ms total)
T3564 002:288 JLINK_ReadReg(R0)  returns 0x00000001 (0000ms, 1319ms total)
T3564 002:288 JLINK_WriteReg(R0, 0x08004000)  returns 0x00 (0000ms, 1319ms total)
T3564 002:288 JLINK_WriteReg(R1, 0x00004000)  returns 0x00 (0000ms, 1319ms total)
T3564 002:288 JLINK_WriteReg(R2, 0x000000FF)  returns 0x00 (0000ms, 1319ms total)
T3564 002:288 JLINK_WriteReg(R3, 0x00000000)  returns 0x00 (0000ms, 1319ms total)
T3564 002:288 JLINK_WriteReg(R4, 0x00000000)  returns 0x00 (0000ms, 1319ms total)
T3564 002:288 JLINK_WriteReg(R5, 0x00000000)  returns 0x00 (0000ms, 1319ms total)
T3564 002:288 JLINK_WriteReg(R6, 0x00000000)  returns 0x00 (0000ms, 1319ms total)
T3564 002:288 JLINK_WriteReg(R7, 0x00000000)  returns 0x00 (0000ms, 1319ms total)
T3564 002:288 JLINK_WriteReg(R8, 0x00000000)  returns 0x00 (0000ms, 1319ms total)
T3564 002:288 JLINK_WriteReg(R9, 0x2000017C)  returns 0x00 (0000ms, 1319ms total)
T3564 002:288 JLINK_WriteReg(R10, 0x00000000)  returns 0x00 (0000ms, 1319ms total)
T3564 002:288 JLINK_WriteReg(R11, 0x00000000)  returns 0x00 (0000ms, 1319ms total)
T3564 002:288 JLINK_WriteReg(R12, 0x00000000)  returns 0x00 (0000ms, 1319ms total)
T3564 002:288 JLINK_WriteReg(R13 (SP), 0x20001000)  returns 0x00 (0000ms, 1319ms total)
T3564 002:288 JLINK_WriteReg(R14, 0x20000001)  returns 0x00 (0000ms, 1319ms total)
T3564 002:288 JLINK_WriteReg(R15 (PC), 0x200000BC)  returns 0x00 (0000ms, 1319ms total)
T3564 002:288 JLINK_WriteReg(XPSR, 0x01000000)  returns 0x00 (0000ms, 1319ms total)
T3564 002:288 JLINK_WriteReg(MSP, 0x20001000)  returns 0x00 (0000ms, 1319ms total)
T3564 002:288 JLINK_WriteReg(PSP, 0x20001000)  returns 0x00 (0001ms, 1320ms total)
T3564 002:289 JLINK_WriteReg(CFBP, 0x00000000)  returns 0x00 (0000ms, 1320ms total)
T3564 002:289 JLINK_SetBPEx(Addr = 0x20000000, Type = 0xFFFFFFF2)  returns 0x00000005 (0000ms, 1320ms total)
T3564 002:289 JLINK_Go() -- CPU_ReadMem(4 bytes @ 0xE0001000) (0007ms, 1327ms total)
T3564 002:296 JLINK_IsHalted()  returns FALSE (0002ms, 1329ms total)
T3564 002:373 JLINK_IsHalted()  returns FALSE (0003ms, 1330ms total)
T3564 002:377 JLINK_IsHalted()  returns FALSE (0002ms, 1329ms total)
T3564 002:393 JLINK_IsHalted()  returns FALSE (0002ms, 1329ms total)
T3564 002:405 JLINK_IsHalted()  returns FALSE (0002ms, 1329ms total)
T3564 002:408 JLINK_IsHalted()  returns FALSE (0002ms, 1329ms total)
T3564 002:411 JLINK_IsHalted()  returns FALSE (0002ms, 1329ms total)
T3564 002:419 JLINK_IsHalted()  returns FALSE (0002ms, 1329ms total)
T3564 002:422 JLINK_IsHalted()  returns FALSE (0003ms, 1330ms total)
T3564 002:429 JLINK_IsHalted()  returns FALSE (0003ms, 1330ms total)
T3564 002:433 JLINK_IsHalted()  returns FALSE (0002ms, 1329ms total)
T3564 002:436 JLINK_IsHalted()  returns FALSE (0002ms, 1329ms total)
T3564 002:439 JLINK_IsHalted()  returns FALSE (0002ms, 1329ms total)
T3564 002:463 JLINK_IsHalted()  returns FALSE (0002ms, 1329ms total)
T3564 002:466 JLINK_IsHalted()  returns FALSE (0002ms, 1329ms total)
T3564 002:469 JLINK_IsHalted()  returns FALSE (0003ms, 1330ms total)
T3564 002:473 JLINK_IsHalted()  returns FALSE (0002ms, 1329ms total)
T3564 002:476 JLINK_IsHalted()  returns FALSE (0002ms, 1329ms total)
T3564 002:482 JLINK_IsHalted()  returns FALSE (0002ms, 1329ms total)
T3564 002:485 JLINK_IsHalted()  returns FALSE (0002ms, 1329ms total)
T3564 002:501 JLINK_IsHalted()  returns FALSE (0002ms, 1329ms total)
T3564 002:504 JLINK_IsHalted()  returns FALSE (0002ms, 1329ms total)
T3564 002:507 JLINK_IsHalted()  returns FALSE (0002ms, 1329ms total)
T3564 002:516 JLINK_IsHalted()  returns FALSE (0002ms, 1329ms total)
T3564 002:528 JLINK_IsHalted()  returns FALSE (0003ms, 1330ms total)
T3564 002:532 JLINK_IsHalted()  returns FALSE (0002ms, 1329ms total)
T3564 002:547 JLINK_IsHalted()  returns FALSE (0002ms, 1329ms total)
T3564 002:557 JLINK_IsHalted()  returns FALSE (0003ms, 1330ms total)
T3564 002:561 JLINK_IsHalted()  returns FALSE (0002ms, 1329ms total)
T3564 002:564 JLINK_IsHalted()  returns FALSE (0002ms, 1329ms total)
T3564 002:574 JLINK_IsHalted()  returns FALSE (0002ms, 1329ms total)
T3564 002:577 JLINK_IsHalted()  returns FALSE (0002ms, 1329ms total)
T3564 002:580 JLINK_IsHalted()  returns FALSE (0002ms, 1329ms total)
T3564 002:589 JLINK_IsHalted()  returns FALSE (0002ms, 1329ms total)
T3564 002:592 JLINK_IsHalted()  returns FALSE (0002ms, 1329ms total)
T3564 002:595 JLINK_IsHalted()  returns FALSE (0002ms, 1329ms total)
T3564 002:604 JLINK_IsHalted()  returns FALSE (0003ms, 1330ms total)
T3564 002:608 JLINK_IsHalted()  returns FALSE (0003ms, 1330ms total)
T3564 002:612 JLINK_IsHalted()  returns FALSE (0002ms, 1329ms total)
T3564 002:618 JLINK_IsHalted()  returns FALSE (0003ms, 1330ms total)
T3564 002:622 JLINK_IsHalted()  returns FALSE (0002ms, 1329ms total)
T3564 002:625 JLINK_IsHalted()  returns FALSE (0002ms, 1329ms total)
T3564 002:632 JLINK_IsHalted()  returns FALSE (0002ms, 1329ms total)
T3564 002:635 JLINK_IsHalted()  returns FALSE (0002ms, 1329ms total)
T3564 002:638 JLINK_IsHalted()  returns FALSE (0002ms, 1329ms total)
T3564 002:641 JLINK_IsHalted()  returns FALSE (0002ms, 1329ms total)
T3564 002:647 JLINK_IsHalted()  returns FALSE (0002ms, 1329ms total)
T3564 002:650 JLINK_IsHalted()  returns FALSE (0003ms, 1330ms total)
T3564 002:654 JLINK_IsHalted()  returns FALSE (0003ms, 1330ms total)
T3564 002:658 JLINK_IsHalted()  returns FALSE (0002ms, 1329ms total)
T3564 002:668 JLINK_IsHalted() -- CPU_ReadMem(2 bytes @ 0x20000000)  returns TRUE (0008ms, 1335ms total)
T3564 002:676 JLINK_ReadReg(R15 (PC))  returns 0x20000000 (0000ms, 1327ms total)
T3564 002:676 JLINK_ClrBPEx(BPHandle = 0x00000005)  returns 0x00 (0000ms, 1327ms total)
T3564 002:676 JLINK_ReadReg(R0)  returns 0x00000000 (0000ms, 1327ms total)
T3564 002:677 JLINK_WriteReg(R0, 0x00000001)  returns 0x00 (0001ms, 1328ms total)
T3564 002:678 JLINK_WriteReg(R1, 0x00004000)  returns 0x00 (0000ms, 1328ms total)
T3564 002:678 JLINK_WriteReg(R2, 0x000000FF)  returns 0x00 (0000ms, 1328ms total)
T3564 002:678 JLINK_WriteReg(R3, 0x00000000)  returns 0x00 (0000ms, 1328ms total)
T3564 002:678 JLINK_WriteReg(R4, 0x00000000)  returns 0x00 (0000ms, 1328ms total)
T3564 002:678 JLINK_WriteReg(R5, 0x00000000)  returns 0x00 (0000ms, 1328ms total)
T3564 002:678 JLINK_WriteReg(R6, 0x00000000)  returns 0x00 (0000ms, 1328ms total)
T3564 002:678 JLINK_WriteReg(R7, 0x00000000)  returns 0x00 (0000ms, 1328ms total)
T3564 002:678 JLINK_WriteReg(R8, 0x00000000)  returns 0x00 (0000ms, 1328ms total)
T3564 002:678 JLINK_WriteReg(R9, 0x2000017C)  returns 0x00 (0000ms, 1328ms total)
T3564 002:678 JLINK_WriteReg(R10, 0x00000000)  returns 0x00 (0000ms, 1328ms total)
T3564 002:678 JLINK_WriteReg(R11, 0x00000000)  returns 0x00 (0000ms, 1328ms total)
T3564 002:678 JLINK_WriteReg(R12, 0x00000000)  returns 0x00 (0000ms, 1328ms total)
T3564 002:678 JLINK_WriteReg(R13 (SP), 0x20001000)  returns 0x00 (0000ms, 1328ms total)
T3564 002:678 JLINK_WriteReg(R14, 0x20000001)  returns 0x00 (0000ms, 1328ms total)
T3564 002:678 JLINK_WriteReg(R15 (PC), 0x20000082)  returns 0x00 (0000ms, 1328ms total)
T3564 002:678 JLINK_WriteReg(XPSR, 0x01000000)  returns 0x00 (0000ms, 1328ms total)
T3564 002:678 JLINK_WriteReg(MSP, 0x20001000)  returns 0x00 (0000ms, 1328ms total)
T3564 002:678 JLINK_WriteReg(PSP, 0x20001000)  returns 0x00 (0000ms, 1328ms total)
T3564 002:678 JLINK_WriteReg(CFBP, 0x00000000)  returns 0x00 (0000ms, 1328ms total)
T3564 002:678 JLINK_SetBPEx(Addr = 0x20000000, Type = 0xFFFFFFF2)  returns 0x00000006 (0000ms, 1328ms total)
T3564 002:678 JLINK_Go() -- CPU_ReadMem(4 bytes @ 0xE0001000) (0009ms, 1337ms total)
T3564 002:687 JLINK_IsHalted() -- CPU_ReadMem(2 bytes @ 0x20000000)  returns TRUE (0011ms, 1348ms total)
T3564 002:698 JLINK_ReadReg(R15 (PC))  returns 0x20000000 (0001ms, 1338ms total)
T3564 002:699 JLINK_ClrBPEx(BPHandle = 0x00000006)  returns 0x00 (0000ms, 1338ms total)
T3564 002:699 JLINK_ReadReg(R0)  returns 0x00000000 (0000ms, 1338ms total)
T3564 002:771 JLINK_WriteMem(0x20000000, 0x0180 Bytes, ...) - Data: 00 BE 0A E0 0D 78 2D 06 68 40 08 24 40 00 00 D3 ... -- CPU_WriteMem(384 bytes @ 0x20000000)  returns 0x180 (0007ms, 1345ms total)
T3564 002:778 JLINK_WriteReg(R0, 0x08000000)  returns 0x00 (0000ms, 1345ms total)
T3564 002:778 JLINK_WriteReg(R1, 0x0A037A00)  returns 0x00 (0000ms, 1345ms total)
T3564 002:778 JLINK_WriteReg(R2, 0x00000002)  returns 0x00 (0000ms, 1345ms total)
T3564 002:778 JLINK_WriteReg(R3, 0x00000000)  returns 0x00 (0000ms, 1345ms total)
T3564 002:778 JLINK_WriteReg(R4, 0x00000000)  returns 0x00 (0000ms, 1345ms total)
T3564 002:778 JLINK_WriteReg(R5, 0x00000000)  returns 0x00 (0000ms, 1345ms total)
T3564 002:778 JLINK_WriteReg(R6, 0x00000000)  returns 0x00 (0000ms, 1345ms total)
T3564 002:778 JLINK_WriteReg(R7, 0x00000000)  returns 0x00 (0000ms, 1345ms total)
T3564 002:778 JLINK_WriteReg(R8, 0x00000000)  returns 0x00 (0000ms, 1345ms total)
T3564 002:778 JLINK_WriteReg(R9, 0x2000017C)  returns 0x00 (0000ms, 1345ms total)
T3564 002:778 JLINK_WriteReg(R10, 0x00000000)  returns 0x00 (0000ms, 1345ms total)
T3564 002:778 JLINK_WriteReg(R11, 0x00000000)  returns 0x00 (0000ms, 1345ms total)
T3564 002:778 JLINK_WriteReg(R12, 0x00000000)  returns 0x00 (0000ms, 1345ms total)
T3564 002:778 JLINK_WriteReg(R13 (SP), 0x20001000)  returns 0x00 (0001ms, 1346ms total)
T3564 002:779 JLINK_WriteReg(R14, 0x20000001)  returns 0x00 (0000ms, 1346ms total)
T3564 002:779 JLINK_WriteReg(R15 (PC), 0x20000054)  returns 0x00 (0000ms, 1346ms total)
T3564 002:779 JLINK_WriteReg(XPSR, 0x01000000)  returns 0x00 (0000ms, 1346ms total)
T3564 002:779 JLINK_WriteReg(MSP, 0x20001000)  returns 0x00 (0000ms, 1346ms total)
T3564 002:779 JLINK_WriteReg(PSP, 0x20001000)  returns 0x00 (0000ms, 1346ms total)
T3564 002:779 JLINK_WriteReg(CFBP, 0x00000000)  returns 0x00 (0000ms, 1346ms total)
T3564 002:779 JLINK_SetBPEx(Addr = 0x20000000, Type = 0xFFFFFFF2) -- CPU_ReadMem(4 bytes @ 0x20000000) -- CPU_WriteMem(4 bytes @ 0x20000000) -- CPU_ReadMem(4 bytes @ 0x20000000) -- CPU_WriteMem(4 bytes @ 0x20000000) -- CPU_ReadMem(2 bytes @ 0x20000000)  returns 0x00000007 (0013ms, 1359ms total)
T3564 002:792 JLINK_Go() -- CPU_WriteMem(2 bytes @ 0x20000000) -- CPU_ReadMem(4 bytes @ 0xE0001000) (0011ms, 1370ms total)
T3564 002:803 JLINK_IsHalted() -- CPU_ReadMem(2 bytes @ 0x20000000)  returns TRUE (0011ms, 1381ms total)
T3564 002:814 JLINK_ReadReg(R15 (PC))  returns 0x20000000 (0000ms, 1370ms total)
T3564 002:814 JLINK_ClrBPEx(BPHandle = 0x00000007)  returns 0x00 (0000ms, 1370ms total)
T3564 002:814 JLINK_ReadReg(R0)  returns 0x00000000 (0000ms, 1370ms total)
T3564 002:819 JLINK_WriteMem(0x20000180, 0x0400 Bytes, ...) - Data: B8 86 00 20 59 02 00 08 89 20 00 08 27 1B 00 08 ... -- CPU_WriteMem(1024 bytes @ 0x20000180)  returns 0x400 (0014ms, 1384ms total)
T3564 002:833 JLINK_WriteReg(R0, 0x08000000)  returns 0x00 (0000ms, 1384ms total)
T3564 002:833 JLINK_WriteReg(R1, 0x00000400)  returns 0x00 (0000ms, 1384ms total)
T3564 002:833 JLINK_WriteReg(R2, 0x20000180)  returns 0x00 (0001ms, 1385ms total)
T3564 002:834 JLINK_WriteReg(R3, 0x00000000)  returns 0x00 (0000ms, 1385ms total)
T3564 002:834 JLINK_WriteReg(R4, 0x00000000)  returns 0x00 (0000ms, 1385ms total)
T3564 002:834 JLINK_WriteReg(R5, 0x00000000)  returns 0x00 (0000ms, 1385ms total)
T3564 002:834 JLINK_WriteReg(R6, 0x00000000)  returns 0x00 (0000ms, 1385ms total)
T3564 002:834 JLINK_WriteReg(R7, 0x00000000)  returns 0x00 (0000ms, 1385ms total)
T3564 002:834 JLINK_WriteReg(R8, 0x00000000)  returns 0x00 (0000ms, 1385ms total)
T3564 002:834 JLINK_WriteReg(R9, 0x2000017C)  returns 0x00 (0000ms, 1385ms total)
T3564 002:834 JLINK_WriteReg(R10, 0x00000000)  returns 0x00 (0000ms, 1385ms total)
T3564 002:834 JLINK_WriteReg(R11, 0x00000000)  returns 0x00 (0000ms, 1385ms total)
T3564 002:834 JLINK_WriteReg(R12, 0x00000000)  returns 0x00 (0000ms, 1385ms total)
T3564 002:834 JLINK_WriteReg(R13 (SP), 0x20001000)  returns 0x00 (0000ms, 1385ms total)
T3564 002:834 JLINK_WriteReg(R14, 0x20000001)  returns 0x00 (0000ms, 1385ms total)
T3564 002:834 JLINK_WriteReg(R15 (PC), 0x20000108)  returns 0x00 (0000ms, 1385ms total)
T3564 002:834 JLINK_WriteReg(XPSR, 0x01000000)  returns 0x00 (0000ms, 1385ms total)
T3564 002:834 JLINK_WriteReg(MSP, 0x20001000)  returns 0x00 (0000ms, 1385ms total)
T3564 002:834 JLINK_WriteReg(PSP, 0x20001000)  returns 0x00 (0000ms, 1385ms total)
T3564 002:834 JLINK_WriteReg(CFBP, 0x00000000)  returns 0x00 (0000ms, 1385ms total)
T3564 002:834 JLINK_SetBPEx(Addr = 0x20000000, Type = 0xFFFFFFF2)  returns 0x00000008 (0000ms, 1385ms total)
T3564 002:834 JLINK_Go() -- CPU_ReadMem(4 bytes @ 0xE0001000) (0007ms, 1392ms total)
T3564 002:841 JLINK_IsHalted()  returns FALSE (0003ms, 1395ms total)
T3564 002:977 JLINK_IsHalted() -- CPU_ReadMem(2 bytes @ 0x20000000)  returns TRUE (0010ms, 1402ms total)
T3564 002:987 JLINK_ReadReg(R15 (PC))  returns 0x20000000 (0000ms, 1392ms total)
T3564 002:987 JLINK_ClrBPEx(BPHandle = 0x00000008)  returns 0x00 (0000ms, 1392ms total)
T3564 002:987 JLINK_ReadReg(R0)  returns 0x00000000 (0000ms, 1392ms total)
T3564 002:989 JLINK_WriteMem(0x20000180, 0x0400 Bytes, ...) - Data: 00 F0 58 F9 06 46 0D 46 50 46 59 46 01 9A 00 F0 ... -- CPU_WriteMem(1024 bytes @ 0x20000180)  returns 0x400 (0013ms, 1405ms total)
T3564 003:005 JLINK_WriteReg(R0, 0x08000400)  returns 0x00 (0000ms, 1405ms total)
T3564 003:005 JLINK_WriteReg(R1, 0x00000400)  returns 0x00 (0000ms, 1405ms total)
T3564 003:005 JLINK_WriteReg(R2, 0x20000180)  returns 0x00 (0000ms, 1405ms total)
T3564 003:005 JLINK_WriteReg(R3, 0x00000000)  returns 0x00 (0000ms, 1405ms total)
T3564 003:005 JLINK_WriteReg(R4, 0x00000000)  returns 0x00 (0000ms, 1405ms total)
T3564 003:005 JLINK_WriteReg(R5, 0x00000000)  returns 0x00 (0000ms, 1405ms total)
T3564 003:005 JLINK_WriteReg(R6, 0x00000000)  returns 0x00 (0000ms, 1405ms total)
T3564 003:005 JLINK_WriteReg(R7, 0x00000000)  returns 0x00 (0000ms, 1405ms total)
T3564 003:005 JLINK_WriteReg(R8, 0x00000000)  returns 0x00 (0000ms, 1405ms total)
T3564 003:005 JLINK_WriteReg(R9, 0x2000017C)  returns 0x00 (0000ms, 1405ms total)
T3564 003:005 JLINK_WriteReg(R10, 0x00000000)  returns 0x00 (0000ms, 1405ms total)
T3564 003:005 JLINK_WriteReg(R11, 0x00000000)  returns 0x00 (0000ms, 1405ms total)
T3564 003:005 JLINK_WriteReg(R12, 0x00000000)  returns 0x00 (0000ms, 1405ms total)
T3564 003:005 JLINK_WriteReg(R13 (SP), 0x20001000)  returns 0x00 (0000ms, 1405ms total)
T3564 003:005 JLINK_WriteReg(R14, 0x20000001)  returns 0x00 (0000ms, 1405ms total)
T3564 003:005 JLINK_WriteReg(R15 (PC), 0x20000108)  returns 0x00 (0000ms, 1405ms total)
T3564 003:005 JLINK_WriteReg(XPSR, 0x01000000)  returns 0x00 (0000ms, 1405ms total)
T3564 003:005 JLINK_WriteReg(MSP, 0x20001000)  returns 0x00 (0000ms, 1405ms total)
T3564 003:005 JLINK_WriteReg(PSP, 0x20001000)  returns 0x00 (0000ms, 1405ms total)
T3564 003:005 JLINK_WriteReg(CFBP, 0x00000000)  returns 0x00 (0000ms, 1405ms total)
T3564 003:005 JLINK_SetBPEx(Addr = 0x20000000, Type = 0xFFFFFFF2)  returns 0x00000009 (0001ms, 1406ms total)
T3564 003:006 JLINK_Go() -- CPU_ReadMem(4 bytes @ 0xE0001000) (0008ms, 1414ms total)
T3564 003:014 JLINK_IsHalted()  returns FALSE (0003ms, 1417ms total)
T3564 003:162 JLINK_IsHalted() -- CPU_ReadMem(2 bytes @ 0x20000000)  returns TRUE (0008ms, 1422ms total)
T3564 003:170 JLINK_ReadReg(R15 (PC))  returns 0x20000000 (0000ms, 1414ms total)
T3564 003:170 JLINK_ClrBPEx(BPHandle = 0x00000009)  returns 0x00 (0000ms, 1414ms total)
T3564 003:170 JLINK_ReadReg(R0)  returns 0x00000000 (0000ms, 1414ms total)
T3564 003:172 JLINK_WriteMem(0x20000180, 0x0400 Bytes, ...) - Data: C1 F3 13 00 C1 F3 0A 56 40 F4 80 15 43 F4 80 13 ... -- CPU_WriteMem(1024 bytes @ 0x20000180)  returns 0x400 (0014ms, 1428ms total)
T3564 003:186 JLINK_WriteReg(R0, 0x08000800)  returns 0x00 (0000ms, 1428ms total)
T3564 003:186 JLINK_WriteReg(R1, 0x00000400)  returns 0x00 (0000ms, 1428ms total)
T3564 003:186 JLINK_WriteReg(R2, 0x20000180)  returns 0x00 (0000ms, 1428ms total)
T3564 003:186 JLINK_WriteReg(R3, 0x00000000)  returns 0x00 (0000ms, 1428ms total)
T3564 003:186 JLINK_WriteReg(R4, 0x00000000)  returns 0x00 (0000ms, 1428ms total)
T3564 003:186 JLINK_WriteReg(R5, 0x00000000)  returns 0x00 (0000ms, 1428ms total)
T3564 003:186 JLINK_WriteReg(R6, 0x00000000)  returns 0x00 (0000ms, 1428ms total)
T3564 003:186 JLINK_WriteReg(R7, 0x00000000)  returns 0x00 (0000ms, 1428ms total)
T3564 003:186 JLINK_WriteReg(R8, 0x00000000)  returns 0x00 (0000ms, 1428ms total)
T3564 003:186 JLINK_WriteReg(R9, 0x2000017C)  returns 0x00 (0000ms, 1428ms total)
T3564 003:186 JLINK_WriteReg(R10, 0x00000000)  returns 0x00 (0000ms, 1428ms total)
T3564 003:186 JLINK_WriteReg(R11, 0x00000000)  returns 0x00 (0000ms, 1428ms total)
T3564 003:186 JLINK_WriteReg(R12, 0x00000000)  returns 0x00 (0000ms, 1428ms total)
T3564 003:186 JLINK_WriteReg(R13 (SP), 0x20001000)  returns 0x00 (0000ms, 1428ms total)
T3564 003:186 JLINK_WriteReg(R14, 0x20000001)  returns 0x00 (0000ms, 1428ms total)
T3564 003:186 JLINK_WriteReg(R15 (PC), 0x20000108)  returns 0x00 (0000ms, 1428ms total)
T3564 003:186 JLINK_WriteReg(XPSR, 0x01000000)  returns 0x00 (0000ms, 1428ms total)
T3564 003:186 JLINK_WriteReg(MSP, 0x20001000)  returns 0x00 (0000ms, 1428ms total)
T3564 003:186 JLINK_WriteReg(PSP, 0x20001000)  returns 0x00 (0001ms, 1429ms total)
T3564 003:187 JLINK_WriteReg(CFBP, 0x00000000)  returns 0x00 (0000ms, 1429ms total)
T3564 003:187 JLINK_SetBPEx(Addr = 0x20000000, Type = 0xFFFFFFF2)  returns 0x0000000A (0000ms, 1429ms total)
T3564 003:187 JLINK_Go() -- CPU_ReadMem(4 bytes @ 0xE0001000) (0007ms, 1436ms total)
T3564 003:194 JLINK_IsHalted()  returns FALSE (0002ms, 1438ms total)
T3564 003:250 JLINK_IsHalted() -- CPU_ReadMem(2 bytes @ 0x20000000)  returns TRUE (0008ms, 1444ms total)
T3564 003:258 JLINK_ReadReg(R15 (PC))  returns 0x20000000 (0000ms, 1436ms total)
T3564 003:258 JLINK_ClrBPEx(BPHandle = 0x0000000A)  returns 0x00 (0000ms, 1436ms total)
T3564 003:258 JLINK_ReadReg(R0)  returns 0x00000000 (0000ms, 1436ms total)
T3564 003:259 JLINK_WriteMem(0x20000180, 0x0400 Bytes, ...) - Data: 44 F0 08 04 0D E0 44 F0 10 04 0A E0 44 F0 20 04 ... -- CPU_WriteMem(1024 bytes @ 0x20000180)  returns 0x400 (0014ms, 1450ms total)
T3564 003:273 JLINK_WriteReg(R0, 0x08000C00)  returns 0x00 (0000ms, 1450ms total)
T3564 003:273 JLINK_WriteReg(R1, 0x00000400)  returns 0x00 (0000ms, 1450ms total)
T3564 003:273 JLINK_WriteReg(R2, 0x20000180)  returns 0x00 (0000ms, 1450ms total)
T3564 003:273 JLINK_WriteReg(R3, 0x00000000)  returns 0x00 (0000ms, 1450ms total)
T3564 003:273 JLINK_WriteReg(R4, 0x00000000)  returns 0x00 (0000ms, 1450ms total)
T3564 003:273 JLINK_WriteReg(R5, 0x00000000)  returns 0x00 (0000ms, 1450ms total)
T3564 003:273 JLINK_WriteReg(R6, 0x00000000)  returns 0x00 (0000ms, 1450ms total)
T3564 003:273 JLINK_WriteReg(R7, 0x00000000)  returns 0x00 (0000ms, 1450ms total)
T3564 003:273 JLINK_WriteReg(R8, 0x00000000)  returns 0x00 (0000ms, 1450ms total)
T3564 003:273 JLINK_WriteReg(R9, 0x2000017C)  returns 0x00 (0000ms, 1450ms total)
T3564 003:273 JLINK_WriteReg(R10, 0x00000000)  returns 0x00 (0000ms, 1450ms total)
T3564 003:273 JLINK_WriteReg(R11, 0x00000000)  returns 0x00 (0000ms, 1450ms total)
T3564 003:273 JLINK_WriteReg(R12, 0x00000000)  returns 0x00 (0000ms, 1450ms total)
T3564 003:273 JLINK_WriteReg(R13 (SP), 0x20001000)  returns 0x00 (0000ms, 1450ms total)
T3564 003:273 JLINK_WriteReg(R14, 0x20000001)  returns 0x00 (0000ms, 1450ms total)
T3564 003:273 JLINK_WriteReg(R15 (PC), 0x20000108)  returns 0x00 (0000ms, 1450ms total)
T3564 003:273 JLINK_WriteReg(XPSR, 0x01000000)  returns 0x00 (0000ms, 1450ms total)
T3564 003:273 JLINK_WriteReg(MSP, 0x20001000)  returns 0x00 (0000ms, 1450ms total)
T3564 003:273 JLINK_WriteReg(PSP, 0x20001000)  returns 0x00 (0000ms, 1450ms total)
T3564 003:273 JLINK_WriteReg(CFBP, 0x00000000)  returns 0x00 (0000ms, 1450ms total)
T3564 003:273 JLINK_SetBPEx(Addr = 0x20000000, Type = 0xFFFFFFF2)  returns 0x0000000B (0000ms, 1450ms total)
T3564 003:273 JLINK_Go() -- CPU_ReadMem(4 bytes @ 0xE0001000) (0008ms, 1458ms total)
T3564 003:281 JLINK_IsHalted()  returns FALSE (0003ms, 1461ms total)
T3564 003:334 JLINK_IsHalted() -- CPU_ReadMem(2 bytes @ 0x20000000)  returns TRUE (0008ms, 1466ms total)
T3564 003:342 JLINK_ReadReg(R15 (PC))  returns 0x20000000 (0000ms, 1458ms total)
T3564 003:342 JLINK_ClrBPEx(BPHandle = 0x0000000B)  returns 0x00 (0000ms, 1458ms total)
T3564 003:342 JLINK_ReadReg(R0)  returns 0x00000000 (0000ms, 1458ms total)
T3564 003:343 JLINK_WriteMem(0x20000180, 0x0400 Bytes, ...) - Data: 04 2D 00 D9 04 25 19 1D 07 29 01 D2 00 23 00 E0 ... -- CPU_WriteMem(1024 bytes @ 0x20000180)  returns 0x400 (0014ms, 1472ms total)
T3564 003:357 JLINK_WriteReg(R0, 0x08001000)  returns 0x00 (0000ms, 1472ms total)
T3564 003:357 JLINK_WriteReg(R1, 0x00000400)  returns 0x00 (0000ms, 1472ms total)
T3564 003:357 JLINK_WriteReg(R2, 0x20000180)  returns 0x00 (0000ms, 1472ms total)
T3564 003:357 JLINK_WriteReg(R3, 0x00000000)  returns 0x00 (0000ms, 1472ms total)
T3564 003:357 JLINK_WriteReg(R4, 0x00000000)  returns 0x00 (0000ms, 1472ms total)
T3564 003:357 JLINK_WriteReg(R5, 0x00000000)  returns 0x00 (0000ms, 1472ms total)
T3564 003:357 JLINK_WriteReg(R6, 0x00000000)  returns 0x00 (0000ms, 1472ms total)
T3564 003:357 JLINK_WriteReg(R7, 0x00000000)  returns 0x00 (0000ms, 1472ms total)
T3564 003:357 JLINK_WriteReg(R8, 0x00000000)  returns 0x00 (0000ms, 1472ms total)
T3564 003:357 JLINK_WriteReg(R9, 0x2000017C)  returns 0x00 (0000ms, 1472ms total)
T3564 003:357 JLINK_WriteReg(R10, 0x00000000)  returns 0x00 (0000ms, 1472ms total)
T3564 003:357 JLINK_WriteReg(R11, 0x00000000)  returns 0x00 (0000ms, 1472ms total)
T3564 003:357 JLINK_WriteReg(R12, 0x00000000)  returns 0x00 (0000ms, 1472ms total)
T3564 003:357 JLINK_WriteReg(R13 (SP), 0x20001000)  returns 0x00 (0000ms, 1472ms total)
T3564 003:357 JLINK_WriteReg(R14, 0x20000001)  returns 0x00 (0000ms, 1472ms total)
T3564 003:357 JLINK_WriteReg(R15 (PC), 0x20000108)  returns 0x00 (0000ms, 1472ms total)
T3564 003:357 JLINK_WriteReg(XPSR, 0x01000000)  returns 0x00 (0000ms, 1472ms total)
T3564 003:357 JLINK_WriteReg(MSP, 0x20001000)  returns 0x00 (0000ms, 1472ms total)
T3564 003:357 JLINK_WriteReg(PSP, 0x20001000)  returns 0x00 (0000ms, 1472ms total)
T3564 003:357 JLINK_WriteReg(CFBP, 0x00000000)  returns 0x00 (0000ms, 1472ms total)
T3564 003:357 JLINK_SetBPEx(Addr = 0x20000000, Type = 0xFFFFFFF2)  returns 0x0000000C (0000ms, 1472ms total)
T3564 003:357 JLINK_Go() -- CPU_ReadMem(4 bytes @ 0xE0001000) (0008ms, 1480ms total)
T3564 003:365 JLINK_IsHalted()  returns FALSE (0002ms, 1482ms total)
T3564 003:386 JLINK_IsHalted() -- CPU_ReadMem(2 bytes @ 0x20000000)  returns TRUE (0009ms, 1489ms total)
T3564 003:395 JLINK_ReadReg(R15 (PC))  returns 0x20000000 (0000ms, 1480ms total)
T3564 003:395 JLINK_ClrBPEx(BPHandle = 0x0000000C)  returns 0x00 (0000ms, 1480ms total)
T3564 003:395 JLINK_ReadReg(R0)  returns 0x00000000 (0000ms, 1480ms total)
T3564 003:396 JLINK_WriteMem(0x20000180, 0x0400 Bytes, ...) - Data: 05 E0 83 E0 FF F7 44 FD C0 1B 02 28 7E D8 30 68 ... -- CPU_WriteMem(1024 bytes @ 0x20000180)  returns 0x400 (0014ms, 1494ms total)
T3564 003:410 JLINK_WriteReg(R0, 0x08001400)  returns 0x00 (0000ms, 1494ms total)
T3564 003:410 JLINK_WriteReg(R1, 0x00000400)  returns 0x00 (0000ms, 1494ms total)
T3564 003:410 JLINK_WriteReg(R2, 0x20000180)  returns 0x00 (0000ms, 1494ms total)
T3564 003:410 JLINK_WriteReg(R3, 0x00000000)  returns 0x00 (0000ms, 1494ms total)
T3564 003:410 JLINK_WriteReg(R4, 0x00000000)  returns 0x00 (0000ms, 1494ms total)
T3564 003:410 JLINK_WriteReg(R5, 0x00000000)  returns 0x00 (0000ms, 1494ms total)
T3564 003:410 JLINK_WriteReg(R6, 0x00000000)  returns 0x00 (0000ms, 1494ms total)
T3564 003:410 JLINK_WriteReg(R7, 0x00000000)  returns 0x00 (0000ms, 1494ms total)
T3564 003:410 JLINK_WriteReg(R8, 0x00000000)  returns 0x00 (0000ms, 1494ms total)
T3564 003:410 JLINK_WriteReg(R9, 0x2000017C)  returns 0x00 (0000ms, 1494ms total)
T3564 003:410 JLINK_WriteReg(R10, 0x00000000)  returns 0x00 (0000ms, 1494ms total)
T3564 003:410 JLINK_WriteReg(R11, 0x00000000)  returns 0x00 (0000ms, 1494ms total)
T3564 003:410 JLINK_WriteReg(R12, 0x00000000)  returns 0x00 (0000ms, 1494ms total)
T3564 003:410 JLINK_WriteReg(R13 (SP), 0x20001000)  returns 0x00 (0000ms, 1494ms total)
T3564 003:410 JLINK_WriteReg(R14, 0x20000001)  returns 0x00 (0000ms, 1494ms total)
T3564 003:410 JLINK_WriteReg(R15 (PC), 0x20000108)  returns 0x00 (0000ms, 1494ms total)
T3564 003:410 JLINK_WriteReg(XPSR, 0x01000000)  returns 0x00 (0000ms, 1494ms total)
T3564 003:410 JLINK_WriteReg(MSP, 0x20001000)  returns 0x00 (0000ms, 1494ms total)
T3564 003:410 JLINK_WriteReg(PSP, 0x20001000)  returns 0x00 (0000ms, 1494ms total)
T3564 003:410 JLINK_WriteReg(CFBP, 0x00000000)  returns 0x00 (0000ms, 1494ms total)
T3564 003:410 JLINK_SetBPEx(Addr = 0x20000000, Type = 0xFFFFFFF2)  returns 0x0000000D (0000ms, 1494ms total)
T3564 003:410 JLINK_Go() -- CPU_ReadMem(4 bytes @ 0xE0001000) (0008ms, 1502ms total)
T3564 003:418 JLINK_IsHalted()  returns FALSE (0002ms, 1504ms total)
T3564 003:452 JLINK_IsHalted() -- CPU_ReadMem(2 bytes @ 0x20000000)  returns TRUE (0008ms, 1510ms total)
T3564 003:460 JLINK_ReadReg(R15 (PC))  returns 0x20000000 (0000ms, 1502ms total)
T3564 003:460 JLINK_ClrBPEx(BPHandle = 0x0000000D)  returns 0x00 (0000ms, 1502ms total)
T3564 003:460 JLINK_ReadReg(R0)  returns 0x00000000 (0000ms, 1502ms total)
T3564 003:461 JLINK_WriteMem(0x20000180, 0x0400 Bytes, ...) - Data: 70 47 00 00 00 0C 00 40 70 47 70 47 70 B5 02 68 ... -- CPU_WriteMem(1024 bytes @ 0x20000180)  returns 0x400 (0013ms, 1515ms total)
T3564 003:474 JLINK_WriteReg(R0, 0x08001800)  returns 0x00 (0000ms, 1515ms total)
T3564 003:474 JLINK_WriteReg(R1, 0x00000400)  returns 0x00 (0000ms, 1515ms total)
T3564 003:474 JLINK_WriteReg(R2, 0x20000180)  returns 0x00 (0000ms, 1515ms total)
T3564 003:474 JLINK_WriteReg(R3, 0x00000000)  returns 0x00 (0000ms, 1515ms total)
T3564 003:474 JLINK_WriteReg(R4, 0x00000000)  returns 0x00 (0000ms, 1515ms total)
T3564 003:474 JLINK_WriteReg(R5, 0x00000000)  returns 0x00 (0000ms, 1515ms total)
T3564 003:474 JLINK_WriteReg(R6, 0x00000000)  returns 0x00 (0000ms, 1515ms total)
T3564 003:474 JLINK_WriteReg(R7, 0x00000000)  returns 0x00 (0000ms, 1515ms total)
T3564 003:474 JLINK_WriteReg(R8, 0x00000000)  returns 0x00 (0000ms, 1515ms total)
T3564 003:474 JLINK_WriteReg(R9, 0x2000017C)  returns 0x00 (0000ms, 1515ms total)
T3564 003:474 JLINK_WriteReg(R10, 0x00000000)  returns 0x00 (0000ms, 1515ms total)
T3564 003:474 JLINK_WriteReg(R11, 0x00000000)  returns 0x00 (0001ms, 1516ms total)
T3564 003:475 JLINK_WriteReg(R12, 0x00000000)  returns 0x00 (0000ms, 1516ms total)
T3564 003:475 JLINK_WriteReg(R13 (SP), 0x20001000)  returns 0x00 (0000ms, 1516ms total)
T3564 003:475 JLINK_WriteReg(R14, 0x20000001)  returns 0x00 (0000ms, 1516ms total)
T3564 003:475 JLINK_WriteReg(R15 (PC), 0x20000108)  returns 0x00 (0000ms, 1516ms total)
T3564 003:475 JLINK_WriteReg(XPSR, 0x01000000)  returns 0x00 (0000ms, 1516ms total)
T3564 003:475 JLINK_WriteReg(MSP, 0x20001000)  returns 0x00 (0000ms, 1516ms total)
T3564 003:475 JLINK_WriteReg(PSP, 0x20001000)  returns 0x00 (0000ms, 1516ms total)
T3564 003:475 JLINK_WriteReg(CFBP, 0x00000000)  returns 0x00 (0000ms, 1516ms total)
T3564 003:475 JLINK_SetBPEx(Addr = 0x20000000, Type = 0xFFFFFFF2)  returns 0x0000000E (0000ms, 1516ms total)
T3564 003:475 JLINK_Go() -- CPU_ReadMem(4 bytes @ 0xE0001000) (0007ms, 1523ms total)
T3564 003:482 JLINK_IsHalted()  returns FALSE (0002ms, 1525ms total)
T3564 003:526 JLINK_IsHalted() -- CPU_ReadMem(2 bytes @ 0x20000000)  returns TRUE (0008ms, 1531ms total)
T3564 003:534 JLINK_ReadReg(R15 (PC))  returns 0x20000000 (0000ms, 1523ms total)
T3564 003:534 JLINK_ClrBPEx(BPHandle = 0x0000000E)  returns 0x00 (0000ms, 1523ms total)
T3564 003:534 JLINK_ReadReg(R0)  returns 0x00000000 (0000ms, 1523ms total)
T3564 003:535 JLINK_WriteMem(0x20000180, 0x0400 Bytes, ...) - Data: 1C B5 01 46 13 48 00 68 C8 B1 00 23 01 AA 04 F0 ... -- CPU_WriteMem(1024 bytes @ 0x20000180)  returns 0x400 (0014ms, 1537ms total)
T3564 003:549 JLINK_WriteReg(R0, 0x08001C00)  returns 0x00 (0000ms, 1537ms total)
T3564 003:549 JLINK_WriteReg(R1, 0x00000400)  returns 0x00 (0000ms, 1537ms total)
T3564 003:549 JLINK_WriteReg(R2, 0x20000180)  returns 0x00 (0000ms, 1537ms total)
T3564 003:549 JLINK_WriteReg(R3, 0x00000000)  returns 0x00 (0000ms, 1537ms total)
T3564 003:549 JLINK_WriteReg(R4, 0x00000000)  returns 0x00 (0000ms, 1537ms total)
T3564 003:549 JLINK_WriteReg(R5, 0x00000000)  returns 0x00 (0000ms, 1537ms total)
T3564 003:549 JLINK_WriteReg(R6, 0x00000000)  returns 0x00 (0000ms, 1537ms total)
T3564 003:549 JLINK_WriteReg(R7, 0x00000000)  returns 0x00 (0000ms, 1537ms total)
T3564 003:549 JLINK_WriteReg(R8, 0x00000000)  returns 0x00 (0001ms, 1538ms total)
T3564 003:550 JLINK_WriteReg(R9, 0x2000017C)  returns 0x00 (0000ms, 1538ms total)
T3564 003:550 JLINK_WriteReg(R10, 0x00000000)  returns 0x00 (0000ms, 1538ms total)
T3564 003:550 JLINK_WriteReg(R11, 0x00000000)  returns 0x00 (0000ms, 1538ms total)
T3564 003:550 JLINK_WriteReg(R12, 0x00000000)  returns 0x00 (0000ms, 1538ms total)
T3564 003:550 JLINK_WriteReg(R13 (SP), 0x20001000)  returns 0x00 (0000ms, 1538ms total)
T3564 003:550 JLINK_WriteReg(R14, 0x20000001)  returns 0x00 (0000ms, 1538ms total)
T3564 003:550 JLINK_WriteReg(R15 (PC), 0x20000108)  returns 0x00 (0000ms, 1538ms total)
T3564 003:550 JLINK_WriteReg(XPSR, 0x01000000)  returns 0x00 (0000ms, 1538ms total)
T3564 003:550 JLINK_WriteReg(MSP, 0x20001000)  returns 0x00 (0000ms, 1538ms total)
T3564 003:550 JLINK_WriteReg(PSP, 0x20001000)  returns 0x00 (0000ms, 1538ms total)
T3564 003:550 JLINK_WriteReg(CFBP, 0x00000000)  returns 0x00 (0000ms, 1538ms total)
T3564 003:550 JLINK_SetBPEx(Addr = 0x20000000, Type = 0xFFFFFFF2)  returns 0x0000000F (0000ms, 1538ms total)
T3564 003:550 JLINK_Go() -- CPU_ReadMem(4 bytes @ 0xE0001000) (0007ms, 1545ms total)
T3564 003:557 JLINK_IsHalted()  returns FALSE (0002ms, 1547ms total)
T3564 003:578 JLINK_IsHalted() -- CPU_ReadMem(2 bytes @ 0x20000000)  returns TRUE (0009ms, 1554ms total)
T3564 003:587 JLINK_ReadReg(R15 (PC))  returns 0x20000000 (0000ms, 1545ms total)
T3564 003:587 JLINK_ClrBPEx(BPHandle = 0x0000000F)  returns 0x00 (0000ms, 1545ms total)
T3564 003:587 JLINK_ReadReg(R0)  returns 0x00000000 (0000ms, 1545ms total)
T3564 003:588 JLINK_WriteMem(0x20000180, 0x0400 Bytes, ...) - Data: 67 65 5C 6D 65 73 73 61 67 65 2E 63 00 00 00 00 ... -- CPU_WriteMem(1024 bytes @ 0x20000180)  returns 0x400 (0014ms, 1559ms total)
T3564 003:602 JLINK_WriteReg(R0, 0x08002000)  returns 0x00 (0000ms, 1559ms total)
T3564 003:602 JLINK_WriteReg(R1, 0x00000400)  returns 0x00 (0000ms, 1559ms total)
